
T2BB8 001:012 SEGGER J-Link V4.40c Log File (0002ms, 1011ms total)
T2BB8 001:012 DLL Compiled: Jan 24 2012 09:30:33 (0002ms, 1011ms total)
T2BB8 001:012 Logging started @ 2013-08-06 15:43 (0002ms, 1011ms total)
T2BB8 001:014 JLINK_SetWarnOutHandler(...) (0000ms, 1013ms total)
T2BB8 001:014 JLINK_OpenEx(...)
Firmware: J-Link ARM V8 compiled Dec  6 2011 18:57:44
Hardware: V8.00
S/N: 20100214
Feature(s): RDI,FlashDL,FlashBP,JFlash,GDBFull  returns O.K. (0787ms, 1013ms total)
T2BB8 001:801 JLINK_SetErrorOutHandler(...) (0000ms, 1800ms total)
T2BB8 001:803 JLINK_ExecCommand("Device = STM32F407VE", ...)
                JLINK_ExecCommand("map ram 0x20000000 - 0x2001FFFF", ...)  returns 0x00 (0000ms, 0000ms total)
                JLINK_AddMirrorAreaEx(Addr = 0x00000000, Size = 0x00000000) (0000ms, 0000ms total)
              Device "STM32F407VE" selected (512 KB flash, 128 KB RAM).  returns 0x00 (0021ms, 1800ms total)
T2BB8 001:825 JLINK_ExecCommand("ProjectFile = "E:\copy\407_·Ö²¹\uCOSII2.91+UCGUI3.90A\MDK_Project\JLinkSettings.ini"", ...)  returns 0x00 (0004ms, 1821ms total)
T2BB8 001:839 JLINK_ExecCommand("DisableConnectionTimeout", ...)  returns 0x00 (0000ms, 1826ms total)
T2BB8 001:840 JLINK_TIF_Select(JLINKARM_TIF_SWD)  returns 0x00 (0002ms, 1826ms total)
T2BB8 001:843 JLINK_SetSpeed(2000) (0001ms, 1828ms total)
T2BB8 001:845 JLINK_GetHardwareVersion()  returns 0x13880 (0000ms, 1829ms total)
T2BB8 001:846 JLINK_GetDLLVersion()  returns 44003 (0000ms, 1829ms total)
T2BB8 001:846 JLINK_GetFirmwareString(...) (0000ms, 1829ms total)
T2BB8 001:876 JLINK_GetDLLVersion()  returns 44003 (0001ms, 1829ms total)
T2BB8 001:877 JLINK_GetCompileDateTime() (0000ms, 1830ms total)
T2BB8 001:881 JLINK_GetFirmwareString(...) (0000ms, 1830ms total)
T2BB8 001:889 JLINK_GetHardwareVersion()  returns 0x13880 (0000ms, 1830ms total)
T2BB8 001:913 JLINK_GetId() >0x108 TIF>Found SWD-DP with ID 0x2BA01477 >0x33 TIF> >0x33 TIF> >0x35 TIF> >0x33 TIF> >0x35 TIF> >0x33 TIF> >0x33 TIF> >0x35 TIF> >0x33 TIF> >0x33 TIF> >0x35 TIF> >0x33 TIF> >0x33 TIF> >0x35 TIF> >0x33 TIF> >0x33 TIF> >0x35 TIF> >0x35 TIF> >0x35 TIF> >0x35 TIF> >0x35 TIF> >0x33 TIF> >0x33 TIF> >0x35 TIF> >0x33 TIF> >0x33 TIF> >0x33 TIF>TPIU fitted.ETM fitted. >0x35 TIF> >0x33 TIF> >0x33 TIF> >0x35 TIF> >0x33 TIF> >0x33 TIF>  FPUnit: 6 code (BP) slots and 2 literal slots
 >0x35 TIF> >0x33 TIF> >0x33 TIF> >0x35 TIF> >0x35 TIF> >0x35 TIF> >0x33 TIF> >0x33 TIF> >0x35 TIF> >0x33 TIF> >0x33 TIF> >0x35 TIF> >0x33 TIF> >0x33 TIF>Found Cortex-M4 r0p1, Little endian. >0x33 TIF>  returns 0x2BA01477 (0076ms, 1830ms total)
T2BB8 001:989 JLINK_GetDebugInfo(0x100) -- Value=0xE00FF003  returns 0x00 (0001ms, 1906ms total)
T2BB8 001:998 JLINK_ReadMem (0xE00FFFF0, 0x0010 Bytes, ...) -- CPU is running -- CPU_ReadMem(16 bytes @ 0xE00FFFF0) -- Data:  0D 00 00 00 10 00 00 00 05 00 00 00 B1 00 00 00  returns 0x00 (0002ms, 1907ms total)
T2BB8 002:000 JLINK_ReadMem (0xE00FFFD0, 0x0020 Bytes, ...) -- CPU is running -- CPU_ReadMem(32 bytes @ 0xE00FFFD0) -- Data:  00 00 00 00 00 00 00 00 00 00 00 00 00 00 00 00 ...  returns 0x00 (0001ms, 1909ms total)
T2BB8 002:001 JLINK_ReadMem (0xE00FF000, 0x0018 Bytes, ...) -- CPU is running -- CPU_ReadMem(24 bytes @ 0xE00FF000) -- Data:  03 F0 F0 FF 03 20 F0 FF 03 30 F0 FF 03 10 F0 FF ...  returns 0x00 (0003ms, 1910ms total)
T2BB8 002:004 JLINK_ReadMemU32(0xE000ED00, 0x0001 Items, ...) -- CPU is running -- CPU_ReadMem(4 bytes @ 0xE000ED00) -- Data:  41 C2 0F 41  returns 0x01 (0001ms, 1913ms total)
T2BB8 002:005 JLINK_ReadMemU32(0xE000EF40, 0x0001 Items, ...) -- CPU is running -- CPU_ReadMem(4 bytes @ 0xE000EF40) -- Data:  21 00 11 10  returns 0x01 (0001ms, 1914ms total)
T2BB8 002:006 JLINK_ReadMemU32(0xE000EF44, 0x0001 Items, ...) -- CPU is running -- CPU_ReadMem(4 bytes @ 0xE000EF44) -- Data:  11 00 00 11  returns 0x01 (0002ms, 1915ms total)
T2BB8 002:009 JLINK_SetResetType(JLINKARM_RESET_TYPE_NORMAL)  returns JLINKARM_RESET_TYPE_NORMAL (0000ms, 1918ms total)
T2BB8 002:009 JLINK_Reset() >0x108 TIF>Found SWD-DP with ID 0x2BA01477 >0x33 TIF> >0x33 TIF> >0x35 TIF> >0x33 TIF> >0x35 TIF> >0x33 TIF> >0x33 TIF> >0x35 TIF> >0x33 TIF> >0x33 TIF> >0x35 TIF> >0x33 TIF> >0x33 TIF> >0x35 TIF> >0x33 TIF> >0x33 TIF> >0x35 TIF> >0x35 TIF> >0x35 TIF> >0x35 TIF> >0x35 TIF> >0x33 TIF> >0x33 TIF> >0x35 TIF> >0x33 TIF> >0x33 TIF> >0x33 TIF>TPIU fitted.ETM fitted. >0x35 TIF> >0x33 TIF> >0x33 TIF> >0x35 TIF> >0x33 TIF> >0x33 TIF>  FPUnit: 6 code (BP) slots and 2 literal slots
 >0x35 TIF> >0x33 TIF> >0x33 TIF> >0x35 TIF> >0x33 TIF> >0x33 TIF> >0x35 TIF> >0x33 TIF> >0x33 TIF> >0x35 TIF> >0x33 TIF> >0x33 TIF>Found Cortex-M4 r0p1, Little endian. (0087ms, 1918ms total)
T2BB8 002:096 JLINK_Halt()  returns 0x00 (0000ms, 2005ms total)
T2BB8 002:096 JLINK_IsHalted()  returns TRUE (0000ms, 2005ms total)
T2BB8 002:096 JLINK_ReadMemU32(0xE000EDF0, 0x0001 Items, ...) -- CPU_ReadMem(4 bytes @ 0xE000EDF0) -- Data:  03 00 03 00  returns 0x01 (0002ms, 2005ms total)
T2BB8 002:098 JLINK_WriteU32(0xE000EDF0, 0xA05F0003) -- CPU_WriteMem(4 bytes @ 0xE000EDF0)  returns 0x00 (0001ms, 2007ms total)
T2BB8 002:099 JLINK_WriteU32(0xE000EDFC, 0x01000000) -- CPU_WriteMem(4 bytes @ 0xE000EDFC)  returns 0x00 (0001ms, 2008ms total)
T2BB8 002:134 JLINK_GetHWStatus(...)  returns 0x00 (0001ms, 2009ms total)
T2BB8 002:175 JLINK_GetNumBPUnits(Type = 0xFFFFFF00)  returns 0x06 (0000ms, 2010ms total)
T2BB8 002:175 JLINK_GetNumBPUnits(Type = 0xF0)  returns 0x2000 (0000ms, 2010ms total)
T2BB8 002:175 JLINK_GetNumWPUnits()  returns 0x04 (0000ms, 2010ms total)
T2BB8 002:192 JLINK_GetSpeed()  returns 0x7D0 (0000ms, 2010ms total)
T2BB8 002:205 JLINK_ReadMemU32(0xE000E004, 0x0001 Items, ...) -- CPU_ReadMem(4 bytes @ 0xE000E004) -- Data:  02 00 00 00  returns 0x01 (0002ms, 2011ms total)
T2BB8 002:207 JLINK_ReadMemU32(0xE000E004, 0x0001 Items, ...) -- CPU_ReadMem(4 bytes @ 0xE000E004) -- Data:  02 00 00 00  returns 0x01 (0001ms, 2013ms total)
T2BB8 002:208 JLINK_WriteMem(0xE0001000, 0x001C Bytes, ...) -- Data:  01 00 00 00 00 00 00 00 00 00 00 00 00 00 00 00 ... -- CPU_WriteMem(28 bytes @ 0xE0001000)  returns 0x1C (0001ms, 2014ms total)
T2BB8 002:209 JLINK_ReadMem (0xE0001000, 0x001C Bytes, ...) -- CPU_ReadMem(28 bytes @ 0xE0001000) -- Data:  01 00 00 40 00 00 00 00 00 00 00 00 00 00 00 00 ...  returns 0x00 (0002ms, 2015ms total)
T2BB8 002:211 JLINK_Halt()  returns 0x00 (0000ms, 2017ms total)
T2BB8 002:211 JLINK_IsHalted()  returns TRUE (0000ms, 2017ms total)
T2BB8 002:223 JLINK_WriteMem(0x20000000, 0x0180 Bytes, ...) -- Data:  00 BE 0A E0 0D 78 2D 06 68 40 08 24 40 00 00 D3 ... -- CPU_WriteMem(384 bytes @ 0x20000000)  returns 0x180 (0006ms, 2017ms total)
T2BB8 002:230 JLINK_WriteReg(R0, 0x08000000)  returns 0x00 (0000ms, 2023ms total)
T2BB8 002:230 JLINK_WriteReg(R1, 0x017D7840)  returns 0x00 (0000ms, 2023ms total)
T2BB8 002:230 JLINK_WriteReg(R2, 0x00000001)  returns 0x00 (0000ms, 2023ms total)
T2BB8 002:230 JLINK_WriteReg(R3, 0x00000000)  returns 0x00 (0000ms, 2023ms total)
T2BB8 002:230 JLINK_WriteReg(R4, 0x00000000)  returns 0x00 (0000ms, 2023ms total)
T2BB8 002:230 JLINK_WriteReg(R5, 0x00000000)  returns 0x00 (0000ms, 2023ms total)
T2BB8 002:230 JLINK_WriteReg(R6, 0x00000000)  returns 0x00 (0000ms, 2023ms total)
T2BB8 002:230 JLINK_WriteReg(R7, 0x00000000)  returns 0x00 (0000ms, 2023ms total)
T2BB8 002:230 JLINK_WriteReg(R8, 0x00000000)  returns 0x00 (0000ms, 2023ms total)
T2BB8 002:230 JLINK_WriteReg(R9, 0x2000017C)  returns 0x00 (0001ms, 2023ms total)
T2BB8 002:231 JLINK_WriteReg(R10, 0x00000000)  returns 0x00 (0000ms, 2024ms total)
T2BB8 002:231 JLINK_WriteReg(R11, 0x00000000)  returns 0x00 (0000ms, 2024ms total)
T2BB8 002:231 JLINK_WriteReg(R12, 0x00000000)  returns 0x00 (0000ms, 2024ms total)
T2BB8 002:231 JLINK_WriteReg(R13, 0x20000800)  returns 0x00 (0000ms, 2024ms total)
T2BB8 002:231 JLINK_WriteReg(R14, 0x20000001)  returns 0x00 (0000ms, 2024ms total)
T2BB8 002:231 JLINK_WriteReg(R15, 0x20000054)  returns 0x00 (0000ms, 2024ms total)
T2BB8 002:231 JLINK_WriteReg(XPSR, 0x01000000)  returns 0x00 (0000ms, 2024ms total)
T2BB8 002:231 JLINK_WriteReg(MSP, 0x20000800)  returns 0x00 (0000ms, 2024ms total)
T2BB8 002:231 JLINK_WriteReg(PSP, 0x20000800)  returns 0x00 (0001ms, 2024ms total)
T2BB8 002:232 JLINK_WriteReg(CFBP, 0x00000000)  returns 0x00 (0000ms, 2025ms total)
T2BB8 002:232 JLINK_SetBPEx(Addr = 0x20000000, Type = 0xFFFFFFF2) -- CPU_ReadMem(2 bytes @ 0x20000000)  returns 0x00000001 (0001ms, 2025ms total)
T2BB8 002:233 JLINK_Go() -- CPU_WriteMem(2 bytes @ 0x20000000) -- CPU_WriteMem(4 bytes @ 0xE0002008) -- CPU_WriteMem(4 bytes @ 0xE000200C) -- CPU_WriteMem(4 bytes @ 0xE0002010) -- CPU_WriteMem(4 bytes @ 0xE0002014) -- CPU_WriteMem(4 bytes @ 0xE0002018) -- CPU_WriteMem(4 bytes @ 0xE000201C) (0010ms, 2026ms total)
T2BB8 002:243 JLINK_IsHalted() -- CPU_ReadMem(2 bytes @ 0x20000000)  returns TRUE (0007ms, 2036ms total)
T2BB8 002:250 JLINK_ReadReg(R15)  returns 0x20000000 (0000ms, 2036ms total)
T2BB8 002:250 JLINK_ClrBPEx(BPHandle = 0x00000001)  returns 0x00 (0000ms, 2036ms total)
T2BB8 002:250 JLINK_ReadReg(R0)  returns 0x00000000 (0000ms, 2036ms total)
T2BB8 002:251 JLINK_WriteReg(R0, 0x08000000)  returns 0x00 (0000ms, 2037ms total)
T2BB8 002:251 JLINK_WriteReg(R1, 0x00004000)  returns 0x00 (0000ms, 2037ms total)
T2BB8 002:252 JLINK_WriteReg(R2, 0x000000FF)  returns 0x00 (0000ms, 2037ms total)
T2BB8 002:252 JLINK_WriteReg(R3, 0x00000000)  returns 0x00 (0000ms, 2037ms total)
T2BB8 002:252 JLINK_WriteReg(R4, 0x00000000)  returns 0x00 (0000ms, 2037ms total)
T2BB8 002:252 JLINK_WriteReg(R5, 0x00000000)  returns 0x00 (0000ms, 2037ms total)
T2BB8 002:252 JLINK_WriteReg(R6, 0x00000000)  returns 0x00 (0000ms, 2037ms total)
T2BB8 002:252 JLINK_WriteReg(R7, 0x00000000)  returns 0x00 (0000ms, 2037ms total)
T2BB8 002:252 JLINK_WriteReg(R8, 0x00000000)  returns 0x00 (0000ms, 2037ms total)
T2BB8 002:252 JLINK_WriteReg(R9, 0x2000017C)  returns 0x00 (0000ms, 2037ms total)
T2BB8 002:252 JLINK_WriteReg(R10, 0x00000000)  returns 0x00 (0000ms, 2037ms total)
T2BB8 002:252 JLINK_WriteReg(R11, 0x00000000)  returns 0x00 (0000ms, 2037ms total)
T2BB8 002:253 JLINK_WriteReg(R12, 0x00000000)  returns 0x00 (0000ms, 2038ms total)
T2BB8 002:253 JLINK_WriteReg(R13, 0x20000800)  returns 0x00 (0000ms, 2038ms total)
T2BB8 002:253 JLINK_WriteReg(R14, 0x20000001)  returns 0x00 (0000ms, 2038ms total)
T2BB8 002:253 JLINK_WriteReg(R15, 0x20000020)  returns 0x00 (0000ms, 2038ms total)
T2BB8 002:253 JLINK_WriteReg(XPSR, 0x01000000)  returns 0x00 (0000ms, 2038ms total)
T2BB8 002:253 JLINK_WriteReg(MSP, 0x20000800)  returns 0x00 (0000ms, 2038ms total)
T2BB8 002:253 JLINK_WriteReg(PSP, 0x20000800)  returns 0x00 (0000ms, 2038ms total)
T2BB8 002:253 JLINK_WriteReg(CFBP, 0x00000000)  returns 0x00 (0000ms, 2038ms total)
T2BB8 002:253 JLINK_SetBPEx(Addr = 0x20000000, Type = 0xFFFFFFF2)  returns 0x00000002 (0000ms, 2038ms total)
T2BB8 002:253 JLINK_Go() -- CPU_WriteMem(4 bytes @ 0xE0002008) -- CPU_WriteMem(4 bytes @ 0xE000200C) -- CPU_WriteMem(4 bytes @ 0xE0002010) -- CPU_WriteMem(4 bytes @ 0xE0002014) -- CPU_WriteMem(4 bytes @ 0xE0002018) -- CPU_WriteMem(4 bytes @ 0xE000201C) (0039ms, 2038ms total)
T2BB8 002:292 JLINK_IsHalted() -- CPU_ReadMem(2 bytes @ 0x20000000)  returns TRUE (0006ms, 2077ms total)
T2BB8 002:298 JLINK_ReadReg(R15)  returns 0x20000000 (0000ms, 2077ms total)
T2BB8 002:298 JLINK_ClrBPEx(BPHandle = 0x00000002)  returns 0x00 (0000ms, 2077ms total)
T2BB8 002:298 JLINK_ReadReg(R0)  returns 0x00000001 (0000ms, 2077ms total)
T2BB8 002:298 JLINK_WriteReg(R0, 0x08000000)  returns 0x00 (0001ms, 2077ms total)
T2BB8 002:299 JLINK_WriteReg(R1, 0x00004000)  returns 0x00 (0000ms, 2078ms total)
T2BB8 002:299 JLINK_WriteReg(R2, 0x000000FF)  returns 0x00 (0000ms, 2078ms total)
T2BB8 002:299 JLINK_WriteReg(R3, 0x00000000)  returns 0x00 (0000ms, 2078ms total)
T2BB8 002:299 JLINK_WriteReg(R4, 0x00000000)  returns 0x00 (0000ms, 2078ms total)
T2BB8 002:299 JLINK_WriteReg(R5, 0x00000000)  returns 0x00 (0000ms, 2078ms total)
T2BB8 002:299 JLINK_WriteReg(R6, 0x00000000)  returns 0x00 (0001ms, 2078ms total)
T2BB8 002:300 JLINK_WriteReg(R7, 0x00000000)  returns 0x00 (0000ms, 2079ms total)
T2BB8 002:300 JLINK_WriteReg(R8, 0x00000000)  returns 0x00 (0000ms, 2079ms total)
T2BB8 002:300 JLINK_WriteReg(R9, 0x2000017C)  returns 0x00 (0000ms, 2079ms total)
T2BB8 002:300 JLINK_WriteReg(R10, 0x00000000)  returns 0x00 (0000ms, 2079ms total)
T2BB8 002:300 JLINK_WriteReg(R11, 0x00000000)  returns 0x00 (0000ms, 2079ms total)
T2BB8 002:300 JLINK_WriteReg(R12, 0x00000000)  returns 0x00 (0000ms, 2079ms total)
T2BB8 002:300 JLINK_WriteReg(R13, 0x20000800)  returns 0x00 (0000ms, 2079ms total)
T2BB8 002:300 JLINK_WriteReg(R14, 0x20000001)  returns 0x00 (0000ms, 2079ms total)
T2BB8 002:300 JLINK_WriteReg(R15, 0x200000BC)  returns 0x00 (0001ms, 2079ms total)
T2BB8 002:301 JLINK_WriteReg(XPSR, 0x01000000)  returns 0x00 (0000ms, 2080ms total)
T2BB8 002:301 JLINK_WriteReg(MSP, 0x20000800)  returns 0x00 (0000ms, 2080ms total)
T2BB8 002:301 JLINK_WriteReg(PSP, 0x20000800)  returns 0x00 (0000ms, 2080ms total)
T2BB8 002:301 JLINK_WriteReg(CFBP, 0x00000000)  returns 0x00 (0000ms, 2080ms total)
T2BB8 002:301 JLINK_SetBPEx(Addr = 0x20000000, Type = 0xFFFFFFF2)  returns 0x00000003 (0000ms, 2080ms total)
T2BB8 002:301 JLINK_Go() -- CPU_WriteMem(4 bytes @ 0xE0002008) -- CPU_WriteMem(4 bytes @ 0xE000200C) -- CPU_WriteMem(4 bytes @ 0xE0002010) -- CPU_WriteMem(4 bytes @ 0xE0002014) -- CPU_WriteMem(4 bytes @ 0xE0002018) -- CPU_WriteMem(4 bytes @ 0xE000201C) (0010ms, 2080ms total)
T2BB8 002:311 JLINK_IsHalted()  returns FALSE (0001ms, 2090ms total)
T2BB8 002:362 JLINK_IsHalted()  returns FALSE (0001ms, 2090ms total)
T2BB8 002:413 JLINK_IsHalted()  returns FALSE (0001ms, 2090ms total)
T2BB8 002:464 JLINK_IsHalted()  returns FALSE (0001ms, 2090ms total)
T2BB8 002:515 JLINK_IsHalted()  returns FALSE (0001ms, 2090ms total)
T2BB8 002:566 JLINK_IsHalted()  returns FALSE (0001ms, 2090ms total)
T2BB8 002:617 JLINK_IsHalted()  returns FALSE (0001ms, 2090ms total)
T2BB8 002:668 JLINK_IsHalted()  returns FALSE (0001ms, 2090ms total)
T2BB8 002:719 JLINK_IsHalted() -- CPU_ReadMem(2 bytes @ 0x20000000)  returns TRUE (0007ms, 2090ms total)
T2BB8 002:726 JLINK_ReadReg(R15)  returns 0x20000000 (0000ms, 2090ms total)
T2BB8 002:726 JLINK_ClrBPEx(BPHandle = 0x00000003)  returns 0x00 (0000ms, 2090ms total)
T2BB8 002:726 JLINK_ReadReg(R0)  returns 0x00000000 (0000ms, 2090ms total)
T2BB8 002:727 JLINK_WriteReg(R0, 0x08004000)  returns 0x00 (0000ms, 2090ms total)
T2BB8 002:727 JLINK_WriteReg(R1, 0x00004000)  returns 0x00 (0000ms, 2090ms total)
T2BB8 002:727 JLINK_WriteReg(R2, 0x000000FF)  returns 0x00 (0001ms, 2090ms total)
T2BB8 002:728 JLINK_WriteReg(R3, 0x00000000)  returns 0x00 (0000ms, 2091ms total)
T2BB8 002:728 JLINK_WriteReg(R4, 0x00000000)  returns 0x00 (0000ms, 2091ms total)
T2BB8 002:728 JLINK_WriteReg(R5, 0x00000000)  returns 0x00 (0000ms, 2091ms total)
T2BB8 002:728 JLINK_WriteReg(R6, 0x00000000)  returns 0x00 (0000ms, 2091ms total)
T2BB8 002:728 JLINK_WriteReg(R7, 0x00000000)  returns 0x00 (0000ms, 2091ms total)
T2BB8 002:728 JLINK_WriteReg(R8, 0x00000000)  returns 0x00 (0000ms, 2091ms total)
T2BB8 002:728 JLINK_WriteReg(R9, 0x2000017C)  returns 0x00 (0000ms, 2091ms total)
T2BB8 002:728 JLINK_WriteReg(R10, 0x00000000)  returns 0x00 (0000ms, 2091ms total)
T2BB8 002:728 JLINK_WriteReg(R11, 0x00000000)  returns 0x00 (0000ms, 2091ms total)
T2BB8 002:729 JLINK_WriteReg(R12, 0x00000000)  returns 0x00 (0000ms, 2092ms total)
T2BB8 002:729 JLINK_WriteReg(R13, 0x20000800)  returns 0x00 (0000ms, 2092ms total)
T2BB8 002:729 JLINK_WriteReg(R14, 0x20000001)  returns 0x00 (0000ms, 2092ms total)
T2BB8 002:729 JLINK_WriteReg(R15, 0x20000020)  returns 0x00 (0000ms, 2092ms total)
T2BB8 002:729 JLINK_WriteReg(XPSR, 0x01000000)  returns 0x00 (0000ms, 2092ms total)
T2BB8 002:729 JLINK_WriteReg(MSP, 0x20000800)  returns 0x00 (0000ms, 2092ms total)
T2BB8 002:729 JLINK_WriteReg(PSP, 0x20000800)  returns 0x00 (0000ms, 2092ms total)
T2BB8 002:730 JLINK_WriteReg(CFBP, 0x00000000)  returns 0x00 (0000ms, 2093ms total)
T2BB8 002:730 JLINK_SetBPEx(Addr = 0x20000000, Type = 0xFFFFFFF2)  returns 0x00000004 (0000ms, 2093ms total)
T2BB8 002:730 JLINK_Go() -- CPU_WriteMem(4 bytes @ 0xE0002008) -- CPU_WriteMem(4 bytes @ 0xE000200C) -- CPU_WriteMem(4 bytes @ 0xE0002010) -- CPU_WriteMem(4 bytes @ 0xE0002014) -- CPU_WriteMem(4 bytes @ 0xE0002018) -- CPU_WriteMem(4 bytes @ 0xE000201C) (0010ms, 2093ms total)
T2BB8 002:740 JLINK_IsHalted() -- CPU_ReadMem(2 bytes @ 0x20000000)  returns TRUE (0006ms, 2103ms total)
T2BB8 002:746 JLINK_ReadReg(R15)  returns 0x20000000 (0000ms, 2103ms total)
T2BB8 002:746 JLINK_ClrBPEx(BPHandle = 0x00000004)  returns 0x00 (0001ms, 2103ms total)
T2BB8 002:747 JLINK_ReadReg(R0)  returns 0x00000001 (0000ms, 2104ms total)
T2BB8 002:747 JLINK_WriteReg(R0, 0x08004000)  returns 0x00 (0000ms, 2104ms total)
T2BB8 002:747 JLINK_WriteReg(R1, 0x00004000)  returns 0x00 (0000ms, 2104ms total)
T2BB8 002:747 JLINK_WriteReg(R2, 0x000000FF)  returns 0x00 (0000ms, 2104ms total)
T2BB8 002:747 JLINK_WriteReg(R3, 0x00000000)  returns 0x00 (0000ms, 2104ms total)
T2BB8 002:747 JLINK_WriteReg(R4, 0x00000000)  returns 0x00 (0000ms, 2104ms total)
T2BB8 002:747 JLINK_WriteReg(R5, 0x00000000)  returns 0x00 (0000ms, 2104ms total)
T2BB8 002:747 JLINK_WriteReg(R6, 0x00000000)  returns 0x00 (0000ms, 2104ms total)
T2BB8 002:747 JLINK_WriteReg(R7, 0x00000000)  returns 0x00 (0000ms, 2104ms total)
T2BB8 002:748 JLINK_WriteReg(R8, 0x00000000)  returns 0x00 (0000ms, 2104ms total)
T2BB8 002:748 JLINK_WriteReg(R9, 0x2000017C)  returns 0x00 (0000ms, 2104ms total)
T2BB8 002:748 JLINK_WriteReg(R10, 0x00000000)  returns 0x00 (0000ms, 2104ms total)
T2BB8 002:748 JLINK_WriteReg(R11, 0x00000000)  returns 0x00 (0000ms, 2104ms total)
T2BB8 002:748 JLINK_WriteReg(R12, 0x00000000)  returns 0x00 (0000ms, 2104ms total)
T2BB8 002:748 JLINK_WriteReg(R13, 0x20000800)  returns 0x00 (0000ms, 2104ms total)
T2BB8 002:748 JLINK_WriteReg(R14, 0x20000001)  returns 0x00 (0000ms, 2104ms total)
T2BB8 002:748 JLINK_WriteReg(R15, 0x200000BC)  returns 0x00 (0000ms, 2104ms total)
T2BB8 002:748 JLINK_WriteReg(XPSR, 0x01000000)  returns 0x00 (0000ms, 2104ms total)
T2BB8 002:748 JLINK_WriteReg(MSP, 0x20000800)  returns 0x00 (0000ms, 2104ms total)
T2BB8 002:749 JLINK_WriteReg(PSP, 0x20000800)  returns 0x00 (0000ms, 2105ms total)
T2BB8 002:749 JLINK_WriteReg(CFBP, 0x00000000)  returns 0x00 (0000ms, 2105ms total)
T2BB8 002:749 JLINK_SetBPEx(Addr = 0x20000000, Type = 0xFFFFFFF2)  returns 0x00000005 (0000ms, 2105ms total)
T2BB8 002:749 JLINK_Go() -- CPU_WriteMem(4 bytes @ 0xE0002008) -- CPU_WriteMem(4 bytes @ 0xE000200C) -- CPU_WriteMem(4 bytes @ 0xE0002010) -- CPU_WriteMem(4 bytes @ 0xE0002014) -- CPU_WriteMem(4 bytes @ 0xE0002018) -- CPU_WriteMem(4 bytes @ 0xE000201C) (0009ms, 2105ms total)
T2BB8 002:758 JLINK_IsHalted()  returns FALSE (0001ms, 2114ms total)
T2BB8 002:809 JLINK_IsHalted()  returns FALSE (0001ms, 2114ms total)
T2BB8 002:860 JLINK_IsHalted()  returns FALSE (0001ms, 2114ms total)
T2BB8 002:911 JLINK_IsHalted()  returns FALSE (0001ms, 2114ms total)
T2BB8 002:962 JLINK_IsHalted()  returns FALSE (0001ms, 2114ms total)
T2BB8 003:013 JLINK_IsHalted()  returns FALSE (0002ms, 2114ms total)
T2BB8 003:065 JLINK_IsHalted()  returns FALSE (0001ms, 2114ms total)
T2BB8 003:116 JLINK_IsHalted()  returns FALSE (0001ms, 2114ms total)
T2BB8 003:167 JLINK_IsHalted() -- CPU_ReadMem(2 bytes @ 0x20000000)  returns TRUE (0006ms, 2114ms total)
T2BB8 003:173 JLINK_ReadReg(R15)  returns 0x20000000 (0000ms, 2114ms total)
T2BB8 003:173 JLINK_ClrBPEx(BPHandle = 0x00000005)  returns 0x00 (0000ms, 2114ms total)
T2BB8 003:173 JLINK_ReadReg(R0)  returns 0x00000000 (0000ms, 2114ms total)
T2BB8 003:174 JLINK_WriteReg(R0, 0x08008000)  returns 0x00 (0000ms, 2114ms total)
T2BB8 003:174 JLINK_WriteReg(R1, 0x00004000)  returns 0x00 (0001ms, 2114ms total)
T2BB8 003:175 JLINK_WriteReg(R2, 0x000000FF)  returns 0x00 (0000ms, 2115ms total)
T2BB8 003:175 JLINK_WriteReg(R3, 0x00000000)  returns 0x00 (0000ms, 2115ms total)
T2BB8 003:175 JLINK_WriteReg(R4, 0x00000000)  returns 0x00 (0000ms, 2115ms total)
T2BB8 003:175 JLINK_WriteReg(R5, 0x00000000)  returns 0x00 (0000ms, 2115ms total)
T2BB8 003:175 JLINK_WriteReg(R6, 0x00000000)  returns 0x00 (0000ms, 2115ms total)
T2BB8 003:175 JLINK_WriteReg(R7, 0x00000000)  returns 0x00 (0000ms, 2115ms total)
T2BB8 003:175 JLINK_WriteReg(R8, 0x00000000)  returns 0x00 (0000ms, 2115ms total)
T2BB8 003:175 JLINK_WriteReg(R9, 0x2000017C)  returns 0x00 (0000ms, 2115ms total)
T2BB8 003:175 JLINK_WriteReg(R10, 0x00000000)  returns 0x00 (0001ms, 2115ms total)
T2BB8 003:176 JLINK_WriteReg(R11, 0x00000000)  returns 0x00 (0000ms, 2116ms total)
T2BB8 003:176 JLINK_WriteReg(R12, 0x00000000)  returns 0x00 (0000ms, 2116ms total)
T2BB8 003:176 JLINK_WriteReg(R13, 0x20000800)  returns 0x00 (0000ms, 2116ms total)
T2BB8 003:176 JLINK_WriteReg(R14, 0x20000001)  returns 0x00 (0000ms, 2116ms total)
T2BB8 003:176 JLINK_WriteReg(R15, 0x20000020)  returns 0x00 (0000ms, 2116ms total)
T2BB8 003:176 JLINK_WriteReg(XPSR, 0x01000000)  returns 0x00 (0000ms, 2116ms total)
T2BB8 003:176 JLINK_WriteReg(MSP, 0x20000800)  returns 0x00 (0000ms, 2116ms total)
T2BB8 003:176 JLINK_WriteReg(PSP, 0x20000800)  returns 0x00 (0000ms, 2116ms total)
T2BB8 003:176 JLINK_WriteReg(CFBP, 0x00000000)  returns 0x00 (0000ms, 2116ms total)
T2BB8 003:176 JLINK_SetBPEx(Addr = 0x20000000, Type = 0xFFFFFFF2)  returns 0x00000006 (0001ms, 2116ms total)
T2BB8 003:177 JLINK_Go() -- CPU_WriteMem(4 bytes @ 0xE0002008) -- CPU_WriteMem(4 bytes @ 0xE000200C) -- CPU_WriteMem(4 bytes @ 0xE0002010) -- CPU_WriteMem(4 bytes @ 0xE0002014) -- CPU_WriteMem(4 bytes @ 0xE0002018) -- CPU_WriteMem(4 bytes @ 0xE000201C) (0009ms, 2117ms total)
T2BB8 003:186 JLINK_IsHalted() -- CPU_ReadMem(2 bytes @ 0x20000000)  returns TRUE (0006ms, 2126ms total)
T2BB8 003:192 JLINK_ReadReg(R15)  returns 0x20000000 (0000ms, 2126ms total)
T2BB8 003:192 JLINK_ClrBPEx(BPHandle = 0x00000006)  returns 0x00 (0000ms, 2126ms total)
T2BB8 003:192 JLINK_ReadReg(R0)  returns 0x00000001 (0000ms, 2126ms total)
T2BB8 003:192 JLINK_WriteReg(R0, 0x08008000)  returns 0x00 (0000ms, 2126ms total)
T2BB8 003:192 JLINK_WriteReg(R1, 0x00004000)  returns 0x00 (0001ms, 2126ms total)
T2BB8 003:193 JLINK_WriteReg(R2, 0x000000FF)  returns 0x00 (0000ms, 2127ms total)
T2BB8 003:193 JLINK_WriteReg(R3, 0x00000000)  returns 0x00 (0000ms, 2127ms total)
T2BB8 003:193 JLINK_WriteReg(R4, 0x00000000)  returns 0x00 (0000ms, 2127ms total)
T2BB8 003:193 JLINK_WriteReg(R5, 0x00000000)  returns 0x00 (0000ms, 2127ms total)
T2BB8 003:193 JLINK_WriteReg(R6, 0x00000000)  returns 0x00 (0000ms, 2127ms total)
T2BB8 003:193 JLINK_WriteReg(R7, 0x00000000)  returns 0x00 (0000ms, 2127ms total)
T2BB8 003:193 JLINK_WriteReg(R8, 0x00000000)  returns 0x00 (0000ms, 2127ms total)
T2BB8 003:193 JLINK_WriteReg(R9, 0x2000017C)  returns 0x00 (0000ms, 2127ms total)
T2BB8 003:193 JLINK_WriteReg(R10, 0x00000000)  returns 0x00 (0000ms, 2127ms total)
T2BB8 003:193 JLINK_WriteReg(R11, 0x00000000)  returns 0x00 (0001ms, 2127ms total)
T2BB8 003:194 JLINK_WriteReg(R12, 0x00000000)  returns 0x00 (0000ms, 2128ms total)
T2BB8 003:194 JLINK_WriteReg(R13, 0x20000800)  returns 0x00 (0000ms, 2128ms total)
T2BB8 003:194 JLINK_WriteReg(R14, 0x20000001)  returns 0x00 (0000ms, 2128ms total)
T2BB8 003:194 JLINK_WriteReg(R15, 0x200000BC)  returns 0x00 (0000ms, 2128ms total)
T2BB8 003:194 JLINK_WriteReg(XPSR, 0x01000000)  returns 0x00 (0000ms, 2128ms total)
T2BB8 003:194 JLINK_WriteReg(MSP, 0x20000800)  returns 0x00 (0000ms, 2128ms total)
T2BB8 003:194 JLINK_WriteReg(PSP, 0x20000800)  returns 0x00 (0000ms, 2128ms total)
T2BB8 003:194 JLINK_WriteReg(CFBP, 0x00000000)  returns 0x00 (0000ms, 2128ms total)
T2BB8 003:194 JLINK_SetBPEx(Addr = 0x20000000, Type = 0xFFFFFFF2)  returns 0x00000007 (0000ms, 2128ms total)
T2BB8 003:195 JLINK_Go() -- CPU_WriteMem(4 bytes @ 0xE0002008) -- CPU_WriteMem(4 bytes @ 0xE000200C) -- CPU_WriteMem(4 bytes @ 0xE0002010) -- CPU_WriteMem(4 bytes @ 0xE0002014) -- CPU_WriteMem(4 bytes @ 0xE0002018) -- CPU_WriteMem(4 bytes @ 0xE000201C) (0008ms, 2128ms total)
T2BB8 003:204 JLINK_IsHalted()  returns FALSE (0001ms, 2137ms total)
T2BB8 003:255 JLINK_IsHalted()  returns FALSE (0001ms, 2137ms total)
T2BB8 003:306 JLINK_IsHalted()  returns FALSE (0001ms, 2137ms total)
T2BB8 003:357 JLINK_IsHalted()  returns FALSE (0001ms, 2137ms total)
T2BB8 003:408 JLINK_IsHalted()  returns FALSE (0001ms, 2137ms total)
T2BB8 003:459 JLINK_IsHalted()  returns FALSE (0001ms, 2137ms total)
T2BB8 003:510 JLINK_IsHalted()  returns FALSE (0001ms, 2137ms total)
T2BB8 003:561 JLINK_IsHalted()  returns FALSE (0001ms, 2137ms total)
T2BB8 003:612 JLINK_IsHalted() -- CPU_ReadMem(2 bytes @ 0x20000000)  returns TRUE (0006ms, 2137ms total)
T2BB8 003:618 JLINK_ReadReg(R15)  returns 0x20000000 (0000ms, 2137ms total)
T2BB8 003:618 JLINK_ClrBPEx(BPHandle = 0x00000007)  returns 0x00 (0000ms, 2137ms total)
T2BB8 003:618 JLINK_ReadReg(R0)  returns 0x00000000 (0000ms, 2137ms total)
T2BB8 003:618 JLINK_WriteReg(R0, 0x00000001)  returns 0x00 (0001ms, 2137ms total)
T2BB8 003:619 JLINK_WriteReg(R1, 0x00004000)  returns 0x00 (0000ms, 2138ms total)
T2BB8 003:619 JLINK_WriteReg(R2, 0x000000FF)  returns 0x00 (0000ms, 2138ms total)
T2BB8 003:619 JLINK_WriteReg(R3, 0x00000000)  returns 0x00 (0000ms, 2138ms total)
T2BB8 003:619 JLINK_WriteReg(R4, 0x00000000)  returns 0x00 (0000ms, 2138ms total)
T2BB8 003:619 JLINK_WriteReg(R5, 0x00000000)  returns 0x00 (0000ms, 2138ms total)
T2BB8 003:619 JLINK_WriteReg(R6, 0x00000000)  returns 0x00 (0000ms, 2138ms total)
T2BB8 003:619 JLINK_WriteReg(R7, 0x00000000)  returns 0x00 (0000ms, 2138ms total)
T2BB8 003:619 JLINK_WriteReg(R8, 0x00000000)  returns 0x00 (0000ms, 2138ms total)
T2BB8 003:619 JLINK_WriteReg(R9, 0x2000017C)  returns 0x00 (0001ms, 2138ms total)
T2BB8 003:620 JLINK_WriteReg(R10, 0x00000000)  returns 0x00 (0000ms, 2139ms total)
T2BB8 003:620 JLINK_WriteReg(R11, 0x00000000)  returns 0x00 (0000ms, 2139ms total)
T2BB8 003:620 JLINK_WriteReg(R12, 0x00000000)  returns 0x00 (0000ms, 2139ms total)
T2BB8 003:620 JLINK_WriteReg(R13, 0x20000800)  returns 0x00 (0000ms, 2139ms total)
T2BB8 003:620 JLINK_WriteReg(R14, 0x20000001)  returns 0x00 (0000ms, 2139ms total)
T2BB8 003:620 JLINK_WriteReg(R15, 0x20000082)  returns 0x00 (0000ms, 2139ms total)
T2BB8 003:620 JLINK_WriteReg(XPSR, 0x01000000)  returns 0x00 (0000ms, 2139ms total)
T2BB8 003:621 JLINK_WriteReg(MSP, 0x20000800)  returns 0x00 (0000ms, 2140ms total)
T2BB8 003:621 JLINK_WriteReg(PSP, 0x20000800)  returns 0x00 (0000ms, 2140ms total)
T2BB8 003:621 JLINK_WriteReg(CFBP, 0x00000000)  returns 0x00 (0000ms, 2140ms total)
T2BB8 003:621 JLINK_SetBPEx(Addr = 0x20000000, Type = 0xFFFFFFF2)  returns 0x00000008 (0000ms, 2140ms total)
T2BB8 003:621 JLINK_Go() -- CPU_WriteMem(4 bytes @ 0xE0002008) -- CPU_WriteMem(4 bytes @ 0xE000200C) -- CPU_WriteMem(4 bytes @ 0xE0002010) -- CPU_WriteMem(4 bytes @ 0xE0002014) -- CPU_WriteMem(4 bytes @ 0xE0002018) -- CPU_WriteMem(4 bytes @ 0xE000201C) (0009ms, 2140ms total)
T2BB8 003:630 JLINK_IsHalted() -- CPU_ReadMem(2 bytes @ 0x20000000)  returns TRUE (0006ms, 2149ms total)
T2BB8 003:636 JLINK_ReadReg(R15)  returns 0x20000000 (0000ms, 2149ms total)
T2BB8 003:636 JLINK_ClrBPEx(BPHandle = 0x00000008)  returns 0x00 (0000ms, 2149ms total)
T2BB8 003:636 JLINK_ReadReg(R0)  returns 0x00000000 (0000ms, 2149ms total)
T2BB8 003:694 JLINK_WriteMem(0x20000000, 0x0180 Bytes, ...) -- Data:  00 BE 0A E0 0D 78 2D 06 68 40 08 24 40 00 00 D3 ... -- CPU_WriteMem(384 bytes @ 0x20000000)  returns 0x180 (0006ms, 2149ms total)
T2BB8 003:701 JLINK_WriteReg(R0, 0x08000000)  returns 0x00 (0000ms, 2155ms total)
T2BB8 003:701 JLINK_WriteReg(R1, 0x017D7840)  returns 0x00 (0000ms, 2155ms total)
T2BB8 003:701 JLINK_WriteReg(R2, 0x00000002)  returns 0x00 (0000ms, 2155ms total)
T2BB8 003:701 JLINK_WriteReg(R3, 0x00000000)  returns 0x00 (0000ms, 2155ms total)
T2BB8 003:701 JLINK_WriteReg(R4, 0x00000000)  returns 0x00 (0000ms, 2155ms total)
T2BB8 003:701 JLINK_WriteReg(R5, 0x00000000)  returns 0x00 (0000ms, 2155ms total)
T2BB8 003:701 JLINK_WriteReg(R6, 0x00000000)  returns 0x00 (0000ms, 2155ms total)
T2BB8 003:701 JLINK_WriteReg(R7, 0x00000000)  returns 0x00 (0000ms, 2155ms total)
T2BB8 003:702 JLINK_WriteReg(R8, 0x00000000)  returns 0x00 (0000ms, 2156ms total)
T2BB8 003:702 JLINK_WriteReg(R9, 0x2000017C)  returns 0x00 (0000ms, 2156ms total)
T2BB8 003:702 JLINK_WriteReg(R10, 0x00000000)  returns 0x00 (0000ms, 2156ms total)
T2BB8 003:702 JLINK_WriteReg(R11, 0x00000000)  returns 0x00 (0000ms, 2156ms total)
T2BB8 003:702 JLINK_WriteReg(R12, 0x00000000)  returns 0x00 (0000ms, 2156ms total)
T2BB8 003:702 JLINK_WriteReg(R13, 0x20000800)  returns 0x00 (0000ms, 2156ms total)
T2BB8 003:702 JLINK_WriteReg(R14, 0x20000001)  returns 0x00 (0000ms, 2156ms total)
T2BB8 003:702 JLINK_WriteReg(R15, 0x20000054)  returns 0x00 (0000ms, 2156ms total)
T2BB8 003:702 JLINK_WriteReg(XPSR, 0x01000000)  returns 0x00 (0000ms, 2156ms total)
T2BB8 003:702 JLINK_WriteReg(MSP, 0x20000800)  returns 0x00 (0001ms, 2156ms total)
T2BB8 003:703 JLINK_WriteReg(PSP, 0x20000800)  returns 0x00 (0000ms, 2157ms total)
T2BB8 003:703 JLINK_WriteReg(CFBP, 0x00000000)  returns 0x00 (0000ms, 2157ms total)
T2BB8 003:703 JLINK_SetBPEx(Addr = 0x20000000, Type = 0xFFFFFFF2) -- CPU_ReadMem(2 bytes @ 0x20000000)  returns 0x00000009 (0001ms, 2157ms total)
T2BB8 003:704 JLINK_Go() -- CPU_WriteMem(2 bytes @ 0x20000000) -- CPU_WriteMem(4 bytes @ 0xE0002008) -- CPU_WriteMem(4 bytes @ 0xE000200C) -- CPU_WriteMem(4 bytes @ 0xE0002010) -- CPU_WriteMem(4 bytes @ 0xE0002014) -- CPU_WriteMem(4 bytes @ 0xE0002018) -- CPU_WriteMem(4 bytes @ 0xE000201C) (0010ms, 2158ms total)
T2BB8 003:714 JLINK_IsHalted() -- CPU_ReadMem(2 bytes @ 0x20000000)  returns TRUE (0006ms, 2168ms total)
T2BB8 003:720 JLINK_ReadReg(R15)  returns 0x20000000 (0000ms, 2168ms total)
T2BB8 003:720 JLINK_ClrBPEx(BPHandle = 0x00000009)  returns 0x00 (0000ms, 2168ms total)
T2BB8 003:720 JLINK_ReadReg(R0)  returns 0x00000000 (0000ms, 2168ms total)
T2BB8 003:720 JLINK_WriteMem(0x20000180, 0x0400 Bytes, ...) -- Data:  B8 60 00 20 29 02 00 08 CF 19 00 08 A5 19 00 08 ... -- CPU_WriteMem(1024 bytes @ 0x20000180)  returns 0x400 (0014ms, 2168ms total)
T2BB8 003:734 JLINK_WriteReg(R0, 0x08000000)  returns 0x00 (0000ms, 2182ms total)
T2BB8 003:734 JLINK_WriteReg(R1, 0x00000400)  returns 0x00 (0000ms, 2182ms total)
T2BB8 003:734 JLINK_WriteReg(R2, 0x20000180)  returns 0x00 (0000ms, 2182ms total)
T2BB8 003:734 JLINK_WriteReg(R3, 0x00000000)  returns 0x00 (0000ms, 2182ms total)
T2BB8 003:734 JLINK_WriteReg(R4, 0x00000000)  returns 0x00 (0001ms, 2182ms total)
T2BB8 003:735 JLINK_WriteReg(R5, 0x00000000)  returns 0x00 (0000ms, 2183ms total)
T2BB8 003:735 JLINK_WriteReg(R6, 0x00000000)  returns 0x00 (0000ms, 2183ms total)
T2BB8 003:735 JLINK_WriteReg(R7, 0x00000000)  returns 0x00 (0000ms, 2183ms total)
T2BB8 003:735 JLINK_WriteReg(R8, 0x00000000)  returns 0x00 (0000ms, 2183ms total)
T2BB8 003:735 JLINK_WriteReg(R9, 0x2000017C)  returns 0x00 (0000ms, 2183ms total)
T2BB8 003:735 JLINK_WriteReg(R10, 0x00000000)  returns 0x00 (0000ms, 2183ms total)
T2BB8 003:735 JLINK_WriteReg(R11, 0x00000000)  returns 0x00 (0000ms, 2183ms total)
T2BB8 003:735 JLINK_WriteReg(R12, 0x00000000)  returns 0x00 (0000ms, 2183ms total)
T2BB8 003:735 JLINK_WriteReg(R13, 0x20000800)  returns 0x00 (0000ms, 2183ms total)
T2BB8 003:735 JLINK_WriteReg(R14, 0x20000001)  returns 0x00 (0001ms, 2183ms total)
T2BB8 003:736 JLINK_WriteReg(R15, 0x20000108)  returns 0x00 (0000ms, 2184ms total)
T2BB8 003:736 JLINK_WriteReg(XPSR, 0x01000000)  returns 0x00 (0000ms, 2184ms total)
T2BB8 003:736 JLINK_WriteReg(MSP, 0x20000800)  returns 0x00 (0000ms, 2184ms total)
T2BB8 003:736 JLINK_WriteReg(PSP, 0x20000800)  returns 0x00 (0000ms, 2184ms total)
T2BB8 003:736 JLINK_WriteReg(CFBP, 0x00000000)  returns 0x00 (0000ms, 2184ms total)
T2BB8 003:736 JLINK_SetBPEx(Addr = 0x20000000, Type = 0xFFFFFFF2)  returns 0x0000000A (0000ms, 2184ms total)
T2BB8 003:736 JLINK_Go() -- CPU_WriteMem(4 bytes @ 0xE0002008) -- CPU_WriteMem(4 bytes @ 0xE000200C) -- CPU_WriteMem(4 bytes @ 0xE0002010) -- CPU_WriteMem(4 bytes @ 0xE0002014) -- CPU_WriteMem(4 bytes @ 0xE0002018) -- CPU_WriteMem(4 bytes @ 0xE000201C) (0009ms, 2184ms total)
T2BB8 003:745 JLINK_IsHalted()  returns FALSE (0001ms, 2193ms total)
T2BB8 003:796 JLINK_IsHalted() -- CPU_ReadMem(2 bytes @ 0x20000000)  returns TRUE (0009ms, 2193ms total)
T2BB8 003:805 JLINK_ReadReg(R15)  returns 0x20000000 (0000ms, 2193ms total)
T2BB8 003:805 JLINK_ClrBPEx(BPHandle = 0x0000000A)  returns 0x00 (0000ms, 2193ms total)
T2BB8 003:805 JLINK_ReadReg(R0)  returns 0x00000000 (0000ms, 2193ms total)
T2BB8 003:805 JLINK_WriteMem(0x20000180, 0x0400 Bytes, ...) -- Data:  AB AA AA 3E AB AA 2A 3E 9F ED 3A 0A 5F EA 92 0C ... -- CPU_WriteMem(1024 bytes @ 0x20000180)  returns 0x400 (0014ms, 2193ms total)
T2BB8 003:820 JLINK_WriteReg(R0, 0x08000400)  returns 0x00 (0000ms, 2207ms total)
T2BB8 003:820 JLINK_WriteReg(R1, 0x00000400)  returns 0x00 (0000ms, 2207ms total)
T2BB8 003:820 JLINK_WriteReg(R2, 0x20000180)  returns 0x00 (0000ms, 2207ms total)
T2BB8 003:820 JLINK_WriteReg(R3, 0x00000000)  returns 0x00 (0000ms, 2207ms total)
T2BB8 003:820 JLINK_WriteReg(R4, 0x00000000)  returns 0x00 (0000ms, 2207ms total)
T2BB8 003:820 JLINK_WriteReg(R5, 0x00000000)  returns 0x00 (0001ms, 2207ms total)
T2BB8 003:821 JLINK_WriteReg(R6, 0x00000000)  returns 0x00 (0000ms, 2208ms total)
T2BB8 003:821 JLINK_WriteReg(R7, 0x00000000)  returns 0x00 (0000ms, 2208ms total)
T2BB8 003:821 JLINK_WriteReg(R8, 0x00000000)  returns 0x00 (0000ms, 2208ms total)
T2BB8 003:821 JLINK_WriteReg(R9, 0x2000017C)  returns 0x00 (0000ms, 2208ms total)
T2BB8 003:821 JLINK_WriteReg(R10, 0x00000000)  returns 0x00 (0000ms, 2208ms total)
T2BB8 003:821 JLINK_WriteReg(R11, 0x00000000)  returns 0x00 (0000ms, 2208ms total)
T2BB8 003:821 JLINK_WriteReg(R12, 0x00000000)  returns 0x00 (0000ms, 2208ms total)
T2BB8 003:821 JLINK_WriteReg(R13, 0x20000800)  returns 0x00 (0001ms, 2208ms total)
T2BB8 003:822 JLINK_WriteReg(R14, 0x20000001)  returns 0x00 (0000ms, 2209ms total)
T2BB8 003:822 JLINK_WriteReg(R15, 0x20000108)  returns 0x00 (0000ms, 2209ms total)
T2BB8 003:822 JLINK_WriteReg(XPSR, 0x01000000)  returns 0x00 (0000ms, 2209ms total)
T2BB8 003:822 JLINK_WriteReg(MSP, 0x20000800)  returns 0x00 (0000ms, 2209ms total)
T2BB8 003:822 JLINK_WriteReg(PSP, 0x20000800)  returns 0x00 (0000ms, 2209ms total)
T2BB8 003:822 JLINK_WriteReg(CFBP, 0x00000000)  returns 0x00 (0000ms, 2209ms total)
T2BB8 003:822 JLINK_SetBPEx(Addr = 0x20000000, Type = 0xFFFFFFF2)  returns 0x0000000B (0000ms, 2209ms total)
T2BB8 003:822 JLINK_Go() -- CPU_WriteMem(4 bytes @ 0xE0002008) -- CPU_WriteMem(4 bytes @ 0xE000200C) -- CPU_WriteMem(4 bytes @ 0xE0002010) -- CPU_WriteMem(4 bytes @ 0xE0002014) -- CPU_WriteMem(4 bytes @ 0xE0002018) -- CPU_WriteMem(4 bytes @ 0xE000201C) (0010ms, 2209ms total)
T2BB8 003:832 JLINK_IsHalted()  returns FALSE (0001ms, 2219ms total)
T2BB8 003:883 JLINK_IsHalted() -- CPU_ReadMem(2 bytes @ 0x20000000)  returns TRUE (0006ms, 2219ms total)
T2BB8 003:889 JLINK_ReadReg(R15)  returns 0x20000000 (0000ms, 2219ms total)
T2BB8 003:889 JLINK_ClrBPEx(BPHandle = 0x0000000B)  returns 0x00 (0000ms, 2219ms total)
T2BB8 003:889 JLINK_ReadReg(R0)  returns 0x00000000 (0000ms, 2219ms total)
T2BB8 003:890 JLINK_WriteMem(0x20000180, 0x0400 Bytes, ...) -- Data:  60 0A 4D 1B 76 1C 64 1E F0 D1 82 ED 00 0A 1D 60 ... -- CPU_WriteMem(1024 bytes @ 0x20000180)  returns 0x400 (0013ms, 2219ms total)
T2BB8 003:903 JLINK_WriteReg(R0, 0x08000800)  returns 0x00 (0001ms, 2232ms total)
T2BB8 003:904 JLINK_WriteReg(R1, 0x00000400)  returns 0x00 (0000ms, 2233ms total)
T2BB8 003:904 JLINK_WriteReg(R2, 0x20000180)  returns 0x00 (0000ms, 2233ms total)
T2BB8 003:904 JLINK_WriteReg(R3, 0x00000000)  returns 0x00 (0000ms, 2233ms total)
T2BB8 003:904 JLINK_WriteReg(R4, 0x00000000)  returns 0x00 (0000ms, 2233ms total)
T2BB8 003:904 JLINK_WriteReg(R5, 0x00000000)  returns 0x00 (0000ms, 2233ms total)
T2BB8 003:904 JLINK_WriteReg(R6, 0x00000000)  returns 0x00 (0001ms, 2233ms total)
T2BB8 003:905 JLINK_WriteReg(R7, 0x00000000)  returns 0x00 (0000ms, 2234ms total)
T2BB8 003:905 JLINK_WriteReg(R8, 0x00000000)  returns 0x00 (0000ms, 2234ms total)
T2BB8 003:905 JLINK_WriteReg(R9, 0x2000017C)  returns 0x00 (0000ms, 2234ms total)
T2BB8 003:905 JLINK_WriteReg(R10, 0x00000000)  returns 0x00 (0000ms, 2234ms total)
T2BB8 003:905 JLINK_WriteReg(R11, 0x00000000)  returns 0x00 (0000ms, 2234ms total)
T2BB8 003:905 JLINK_WriteReg(R12, 0x00000000)  returns 0x00 (0000ms, 2234ms total)
T2BB8 003:905 JLINK_WriteReg(R13, 0x20000800)  returns 0x00 (0000ms, 2234ms total)
T2BB8 003:905 JLINK_WriteReg(R14, 0x20000001)  returns 0x00 (0000ms, 2234ms total)
T2BB8 003:905 JLINK_WriteReg(R15, 0x20000108)  returns 0x00 (0000ms, 2234ms total)
T2BB8 003:905 JLINK_WriteReg(XPSR, 0x01000000)  returns 0x00 (0001ms, 2234ms total)
T2BB8 003:906 JLINK_WriteReg(MSP, 0x20000800)  returns 0x00 (0000ms, 2235ms total)
T2BB8 003:906 JLINK_WriteReg(PSP, 0x20000800)  returns 0x00 (0000ms, 2235ms total)
T2BB8 003:906 JLINK_WriteReg(CFBP, 0x00000000)  returns 0x00 (0000ms, 2235ms total)
T2BB8 003:906 JLINK_SetBPEx(Addr = 0x20000000, Type = 0xFFFFFFF2)  returns 0x0000000C (0000ms, 2235ms total)
T2BB8 003:906 JLINK_Go() -- CPU_WriteMem(4 bytes @ 0xE0002008) -- CPU_WriteMem(4 bytes @ 0xE000200C) -- CPU_WriteMem(4 bytes @ 0xE0002010) -- CPU_WriteMem(4 bytes @ 0xE0002014) -- CPU_WriteMem(4 bytes @ 0xE0002018) -- CPU_WriteMem(4 bytes @ 0xE000201C) (0010ms, 2235ms total)
T2BB8 003:916 JLINK_IsHalted()  returns FALSE (0001ms, 2245ms total)
T2BB8 003:967 JLINK_IsHalted() -- CPU_ReadMem(2 bytes @ 0x20000000)  returns TRUE (0006ms, 2245ms total)
T2BB8 003:973 JLINK_ReadReg(R15)  returns 0x20000000 (0000ms, 2245ms total)
T2BB8 003:973 JLINK_ClrBPEx(BPHandle = 0x0000000C)  returns 0x00 (0000ms, 2245ms total)
T2BB8 003:973 JLINK_ReadReg(R0)  returns 0x00000000 (0000ms, 2245ms total)
T2BB8 003:973 JLINK_WriteMem(0x20000180, 0x0400 Bytes, ...) -- Data:  01 0A A9 D8 BD E8 F0 8F 2D E9 F0 4F 4F EA 91 0C ... -- CPU_WriteMem(1024 bytes @ 0x20000180)  returns 0x400 (0014ms, 2245ms total)
T2BB8 003:987 JLINK_WriteReg(R0, 0x08000C00)  returns 0x00 (0000ms, 2259ms total)
T2BB8 003:987 JLINK_WriteReg(R1, 0x00000400)  returns 0x00 (0000ms, 2259ms total)
T2BB8 003:987 JLINK_WriteReg(R2, 0x20000180)  returns 0x00 (0000ms, 2259ms total)
T2BB8 003:988 JLINK_WriteReg(R3, 0x00000000)  returns 0x00 (0000ms, 2260ms total)
T2BB8 003:988 JLINK_WriteReg(R4, 0x00000000)  returns 0x00 (0000ms, 2260ms total)
T2BB8 003:988 JLINK_WriteReg(R5, 0x00000000)  returns 0x00 (0000ms, 2260ms total)
T2BB8 003:988 JLINK_WriteReg(R6, 0x00000000)  returns 0x00 (0000ms, 2260ms total)
T2BB8 003:988 JLINK_WriteReg(R7, 0x00000000)  returns 0x00 (0000ms, 2260ms total)
T2BB8 003:988 JLINK_WriteReg(R8, 0x00000000)  returns 0x00 (0000ms, 2260ms total)
T2BB8 003:988 JLINK_WriteReg(R9, 0x2000017C)  returns 0x00 (0000ms, 2260ms total)
T2BB8 003:988 JLINK_WriteReg(R10, 0x00000000)  returns 0x00 (0000ms, 2260ms total)
T2BB8 003:988 JLINK_WriteReg(R11, 0x00000000)  returns 0x00 (0001ms, 2260ms total)
T2BB8 003:989 JLINK_WriteReg(R12, 0x00000000)  returns 0x00 (0000ms, 2261ms total)
T2BB8 003:989 JLINK_WriteReg(R13, 0x20000800)  returns 0x00 (0000ms, 2261ms total)
T2BB8 003:989 JLINK_WriteReg(R14, 0x20000001)  returns 0x00 (0000ms, 2261ms total)
T2BB8 003:989 JLINK_WriteReg(R15, 0x20000108)  returns 0x00 (0000ms, 2261ms total)
T2BB8 003:989 JLINK_WriteReg(XPSR, 0x01000000)  returns 0x00 (0000ms, 2261ms total)
T2BB8 003:989 JLINK_WriteReg(MSP, 0x20000800)  returns 0x00 (0000ms, 2261ms total)
T2BB8 003:989 JLINK_WriteReg(PSP, 0x20000800)  returns 0x00 (0000ms, 2261ms total)
T2BB8 003:989 JLINK_WriteReg(CFBP, 0x00000000)  returns 0x00 (0001ms, 2261ms total)
T2BB8 003:990 JLINK_SetBPEx(Addr = 0x20000000, Type = 0xFFFFFFF2)  returns 0x0000000D (0000ms, 2262ms total)
T2BB8 003:990 JLINK_Go() -- CPU_WriteMem(4 bytes @ 0xE0002008) -- CPU_WriteMem(4 bytes @ 0xE000200C) -- CPU_WriteMem(4 bytes @ 0xE0002010) -- CPU_WriteMem(4 bytes @ 0xE0002014) -- CPU_WriteMem(4 bytes @ 0xE0002018) -- CPU_WriteMem(4 bytes @ 0xE000201C) (0009ms, 2262ms total)
T2BB8 003:999 JLINK_IsHalted()  returns FALSE (0001ms, 2271ms total)
T2BB8 004:050 JLINK_IsHalted() -- CPU_ReadMem(2 bytes @ 0x20000000)  returns TRUE (0007ms, 2271ms total)
T2BB8 004:057 JLINK_ReadReg(R15)  returns 0x20000000 (0000ms, 2271ms total)
T2BB8 004:057 JLINK_ClrBPEx(BPHandle = 0x0000000D)  returns 0x00 (0000ms, 2271ms total)
T2BB8 004:057 JLINK_ReadReg(R0)  returns 0x00000000 (0000ms, 2271ms total)
T2BB8 004:057 JLINK_WriteMem(0x20000180, 0x0400 Bytes, ...) -- Data:  9F ED 0C 0A 81 60 06 E0 40 21 81 81 C1 81 0A 49 ... -- CPU_WriteMem(1024 bytes @ 0x20000180)  returns 0x400 (0014ms, 2271ms total)
T2BB8 004:071 JLINK_WriteReg(R0, 0x08001000)  returns 0x00 (0000ms, 2285ms total)
T2BB8 004:071 JLINK_WriteReg(R1, 0x00000400)  returns 0x00 (0000ms, 2285ms total)
T2BB8 004:071 JLINK_WriteReg(R2, 0x20000180)  returns 0x00 (0000ms, 2285ms total)
T2BB8 004:071 JLINK_WriteReg(R3, 0x00000000)  returns 0x00 (0000ms, 2285ms total)
T2BB8 004:071 JLINK_WriteReg(R4, 0x00000000)  returns 0x00 (0000ms, 2285ms total)
T2BB8 004:071 JLINK_WriteReg(R5, 0x00000000)  returns 0x00 (0000ms, 2285ms total)
T2BB8 004:071 JLINK_WriteReg(R6, 0x00000000)  returns 0x00 (0001ms, 2285ms total)
T2BB8 004:072 JLINK_WriteReg(R7, 0x00000000)  returns 0x00 (0000ms, 2286ms total)
T2BB8 004:072 JLINK_WriteReg(R8, 0x00000000)  returns 0x00 (0000ms, 2286ms total)
T2BB8 004:072 JLINK_WriteReg(R9, 0x2000017C)  returns 0x00 (0000ms, 2286ms total)
T2BB8 004:072 JLINK_WriteReg(R10, 0x00000000)  returns 0x00 (0000ms, 2286ms total)
T2BB8 004:072 JLINK_WriteReg(R11, 0x00000000)  returns 0x00 (0000ms, 2286ms total)
T2BB8 004:072 JLINK_WriteReg(R12, 0x00000000)  returns 0x00 (0000ms, 2286ms total)
T2BB8 004:072 JLINK_WriteReg(R13, 0x20000800)  returns 0x00 (0000ms, 2286ms total)
T2BB8 004:072 JLINK_WriteReg(R14, 0x20000001)  returns 0x00 (0000ms, 2286ms total)
T2BB8 004:072 JLINK_WriteReg(R15, 0x20000108)  returns 0x00 (0001ms, 2286ms total)
T2BB8 004:073 JLINK_WriteReg(XPSR, 0x01000000)  returns 0x00 (0000ms, 2287ms total)
T2BB8 004:073 JLINK_WriteReg(MSP, 0x20000800)  returns 0x00 (0000ms, 2287ms total)
T2BB8 004:073 JLINK_WriteReg(PSP, 0x20000800)  returns 0x00 (0000ms, 2287ms total)
T2BB8 004:073 JLINK_WriteReg(CFBP, 0x00000000)  returns 0x00 (0000ms, 2287ms total)
T2BB8 004:073 JLINK_SetBPEx(Addr = 0x20000000, Type = 0xFFFFFFF2)  returns 0x0000000E (0000ms, 2287ms total)
T2BB8 004:073 JLINK_Go() -- CPU_WriteMem(4 bytes @ 0xE0002008) -- CPU_WriteMem(4 bytes @ 0xE000200C) -- CPU_WriteMem(4 bytes @ 0xE0002010) -- CPU_WriteMem(4 bytes @ 0xE0002014) -- CPU_WriteMem(4 bytes @ 0xE0002018) -- CPU_WriteMem(4 bytes @ 0xE000201C) (0010ms, 2287ms total)
T2BB8 004:083 JLINK_IsHalted()  returns FALSE (0001ms, 2297ms total)
T2BB8 004:135 JLINK_IsHalted() -- CPU_ReadMem(2 bytes @ 0x20000000)  returns TRUE (0006ms, 2297ms total)
T2BB8 004:142 JLINK_ReadReg(R15)  returns 0x20000000 (0000ms, 2297ms total)
T2BB8 004:142 JLINK_ClrBPEx(BPHandle = 0x0000000E)  returns 0x00 (0000ms, 2297ms total)
T2BB8 004:142 JLINK_ReadReg(R0)  returns 0x00000000 (0000ms, 2297ms total)
T2BB8 004:142 JLINK_WriteMem(0x20000180, 0x0400 Bytes, ...) -- Data:  07 E0 04 69 01 EB 41 06 B5 40 AC 43 B3 40 1C 43 ... -- CPU_WriteMem(1024 bytes @ 0x20000180)  returns 0x400 (0014ms, 2297ms total)
T2BB8 004:156 JLINK_WriteReg(R0, 0x08001400)  returns 0x00 (0000ms, 2311ms total)
T2BB8 004:156 JLINK_WriteReg(R1, 0x00000400)  returns 0x00 (0000ms, 2311ms total)
T2BB8 004:156 JLINK_WriteReg(R2, 0x20000180)  returns 0x00 (0000ms, 2311ms total)
T2BB8 004:156 JLINK_WriteReg(R3, 0x00000000)  returns 0x00 (0000ms, 2311ms total)
T2BB8 004:156 JLINK_WriteReg(R4, 0x00000000)  returns 0x00 (0000ms, 2311ms total)
T2BB8 004:156 JLINK_WriteReg(R5, 0x00000000)  returns 0x00 (0000ms, 2311ms total)
T2BB8 004:156 JLINK_WriteReg(R6, 0x00000000)  returns 0x00 (0001ms, 2311ms total)
T2BB8 004:157 JLINK_WriteReg(R7, 0x00000000)  returns 0x00 (0000ms, 2312ms total)
T2BB8 004:157 JLINK_WriteReg(R8, 0x00000000)  returns 0x00 (0000ms, 2312ms total)
T2BB8 004:157 JLINK_WriteReg(R9, 0x2000017C)  returns 0x00 (0000ms, 2312ms total)
T2BB8 004:157 JLINK_WriteReg(R10, 0x00000000)  returns 0x00 (0000ms, 2312ms total)
T2BB8 004:157 JLINK_WriteReg(R11, 0x00000000)  returns 0x00 (0000ms, 2312ms total)
T2BB8 004:157 JLINK_WriteReg(R12, 0x00000000)  returns 0x00 (0000ms, 2312ms total)
T2BB8 004:157 JLINK_WriteReg(R13, 0x20000800)  returns 0x00 (0000ms, 2312ms total)
T2BB8 004:157 JLINK_WriteReg(R14, 0x20000001)  returns 0x00 (0000ms, 2312ms total)
T2BB8 004:157 JLINK_WriteReg(R15, 0x20000108)  returns 0x00 (0001ms, 2312ms total)
T2BB8 004:158 JLINK_WriteReg(XPSR, 0x01000000)  returns 0x00 (0000ms, 2313ms total)
T2BB8 004:158 JLINK_WriteReg(MSP, 0x20000800)  returns 0x00 (0000ms, 2313ms total)
T2BB8 004:158 JLINK_WriteReg(PSP, 0x20000800)  returns 0x00 (0000ms, 2313ms total)
T2BB8 004:158 JLINK_WriteReg(CFBP, 0x00000000)  returns 0x00 (0000ms, 2313ms total)
T2BB8 004:158 JLINK_SetBPEx(Addr = 0x20000000, Type = 0xFFFFFFF2)  returns 0x0000000F (0000ms, 2313ms total)
T2BB8 004:158 JLINK_Go() -- CPU_WriteMem(4 bytes @ 0xE0002008) -- CPU_WriteMem(4 bytes @ 0xE000200C) -- CPU_WriteMem(4 bytes @ 0xE0002010) -- CPU_WriteMem(4 bytes @ 0xE0002014) -- CPU_WriteMem(4 bytes @ 0xE0002018) -- CPU_WriteMem(4 bytes @ 0xE000201C) (0010ms, 2313ms total)
T2BB8 004:168 JLINK_IsHalted()  returns FALSE (0001ms, 2323ms total)
T2BB8 004:219 JLINK_IsHalted() -- CPU_ReadMem(2 bytes @ 0x20000000)  returns TRUE (0007ms, 2323ms total)
T2BB8 004:226 JLINK_ReadReg(R15)  returns 0x20000000 (0000ms, 2323ms total)
T2BB8 004:226 JLINK_ClrBPEx(BPHandle = 0x0000000F)  returns 0x00 (0000ms, 2323ms total)
T2BB8 004:226 JLINK_ReadReg(R0)  returns 0x00000000 (0000ms, 2323ms total)
T2BB8 004:226 JLINK_WriteMem(0x20000180, 0x0400 Bytes, ...) -- Data:  F0 41 02 22 08 20 00 F0 79 BD 00 00 B4 00 00 20 ... -- CPU_WriteMem(1024 bytes @ 0x20000180)  returns 0x400 (0014ms, 2323ms total)
T2BB8 004:240 JLINK_WriteReg(R0, 0x08001800)  returns 0x00 (0000ms, 2337ms total)
T2BB8 004:240 JLINK_WriteReg(R1, 0x00000400)  returns 0x00 (0000ms, 2337ms total)
T2BB8 004:240 JLINK_WriteReg(R2, 0x20000180)  returns 0x00 (0000ms, 2337ms total)
T2BB8 004:240 JLINK_WriteReg(R3, 0x00000000)  returns 0x00 (0000ms, 2337ms total)
T2BB8 004:240 JLINK_WriteReg(R4, 0x00000000)  returns 0x00 (0001ms, 2337ms total)
T2BB8 004:241 JLINK_WriteReg(R5, 0x00000000)  returns 0x00 (0000ms, 2338ms total)
T2BB8 004:241 JLINK_WriteReg(R6, 0x00000000)  returns 0x00 (0000ms, 2338ms total)
T2BB8 004:241 JLINK_WriteReg(R7, 0x00000000)  returns 0x00 (0000ms, 2338ms total)
T2BB8 004:241 JLINK_WriteReg(R8, 0x00000000)  returns 0x00 (0000ms, 2338ms total)
T2BB8 004:241 JLINK_WriteReg(R9, 0x2000017C)  returns 0x00 (0000ms, 2338ms total)
T2BB8 004:241 JLINK_WriteReg(R10, 0x00000000)  returns 0x00 (0000ms, 2338ms total)
T2BB8 004:241 JLINK_WriteReg(R11, 0x00000000)  returns 0x00 (0000ms, 2338ms total)
T2BB8 004:241 JLINK_WriteReg(R12, 0x00000000)  returns 0x00 (0000ms, 2338ms total)
T2BB8 004:241 JLINK_WriteReg(R13, 0x20000800)  returns 0x00 (0000ms, 2338ms total)
T2BB8 004:242 JLINK_WriteReg(R14, 0x20000001)  returns 0x00 (0000ms, 2338ms total)
T2BB8 004:242 JLINK_WriteReg(R15, 0x20000108)  returns 0x00 (0000ms, 2338ms total)
T2BB8 004:242 JLINK_WriteReg(XPSR, 0x01000000)  returns 0x00 (0000ms, 2338ms total)
T2BB8 004:242 JLINK_WriteReg(MSP, 0x20000800)  returns 0x00 (0000ms, 2338ms total)
T2BB8 004:242 JLINK_WriteReg(PSP, 0x20000800)  returns 0x00 (0000ms, 2338ms total)
T2BB8 004:242 JLINK_WriteReg(CFBP, 0x00000000)  returns 0x00 (0000ms, 2338ms total)
T2BB8 004:242 JLINK_SetBPEx(Addr = 0x20000000, Type = 0xFFFFFFF2)  returns 0x00000010 (0000ms, 2338ms total)
T2BB8 004:242 JLINK_Go() -- CPU_WriteMem(4 bytes @ 0xE0002008) -- CPU_WriteMem(4 bytes @ 0xE000200C) -- CPU_WriteMem(4 bytes @ 0xE0002010) -- CPU_WriteMem(4 bytes @ 0xE0002014) -- CPU_WriteMem(4 bytes @ 0xE0002018) -- CPU_WriteMem(4 bytes @ 0xE000201C) (0010ms, 2338ms total)
T2BB8 004:252 JLINK_IsHalted()  returns FALSE (0001ms, 2348ms total)
T2BB8 004:303 JLINK_IsHalted() -- CPU_ReadMem(2 bytes @ 0x20000000)  returns TRUE (0006ms, 2348ms total)
T2BB8 004:309 JLINK_ReadReg(R15)  returns 0x20000000 (0000ms, 2348ms total)
T2BB8 004:309 JLINK_ClrBPEx(BPHandle = 0x00000010)  returns 0x00 (0000ms, 2348ms total)
T2BB8 004:309 JLINK_ReadReg(R0)  returns 0x00000000 (0001ms, 2348ms total)
T2BB8 004:310 JLINK_WriteMem(0x20000180, 0x0400 Bytes, ...) -- Data:  FF F7 14 BF 6C 00 00 20 70 B5 24 4C 00 25 E1 69 ... -- CPU_WriteMem(1024 bytes @ 0x20000180)  returns 0x400 (0013ms, 2349ms total)
T2BB8 004:324 JLINK_WriteReg(R0, 0x08001C00)  returns 0x00 (0000ms, 2363ms total)
T2BB8 004:324 JLINK_WriteReg(R1, 0x00000400)  returns 0x00 (0000ms, 2363ms total)
T2BB8 004:324 JLINK_WriteReg(R2, 0x20000180)  returns 0x00 (0000ms, 2363ms total)
T2BB8 004:324 JLINK_WriteReg(R3, 0x00000000)  returns 0x00 (0000ms, 2363ms total)
T2BB8 004:324 JLINK_WriteReg(R4, 0x00000000)  returns 0x00 (0000ms, 2363ms total)
T2BB8 004:324 JLINK_WriteReg(R5, 0x00000000)  returns 0x00 (0000ms, 2363ms total)
T2BB8 004:324 JLINK_WriteReg(R6, 0x00000000)  returns 0x00 (0000ms, 2363ms total)
T2BB8 004:324 JLINK_WriteReg(R7, 0x00000000)  returns 0x00 (0000ms, 2363ms total)
T2BB8 004:324 JLINK_WriteReg(R8, 0x00000000)  returns 0x00 (0000ms, 2363ms total)
T2BB8 004:324 JLINK_WriteReg(R9, 0x2000017C)  returns 0x00 (0001ms, 2363ms total)
T2BB8 004:325 JLINK_WriteReg(R10, 0x00000000)  returns 0x00 (0000ms, 2364ms total)
T2BB8 004:325 JLINK_WriteReg(R11, 0x00000000)  returns 0x00 (0000ms, 2364ms total)
T2BB8 004:325 JLINK_WriteReg(R12, 0x00000000)  returns 0x00 (0000ms, 2364ms total)
T2BB8 004:325 JLINK_WriteReg(R13, 0x20000800)  returns 0x00 (0000ms, 2364ms total)
